T2CA8 000:006.140   SEGGER J-Link V7.92d Log File
T2CA8 000:006.904   DLL Compiled: Sep  8 2023 09:49:39
T2CA8 000:006.908   Logging started @ 2023-09-20 08:08
T2CA8 000:006.912   Process: D:\Program Files (x86)\keil_v5\UV4\UV4.exe
T2CA8 000:006.920 - 6.915ms
T2CA8 000:007.281 JLINK_SetWarnOutHandler(...)
T2CA8 000:007.289 - 0.355ms
T2CA8 000:007.295 JLINK_OpenEx(...)
T2CA8 000:009.649   Firmware: J-Link V9 compiled May  7 2021 16:26:12
T2CA8 000:010.061   Firmware: J-Link V9 compiled May  7 2021 16:26:12
T2CA8 000:011.113   Decompressing FW timestamp took 622 us
T2CA8 000:019.071   Hardware: V9.60
T2CA8 000:019.093   S/N: 63610034
T2CA8 000:019.099   OEM: SEGGER
T2CA8 000:019.103   Feature(s): RDI, GDB, FlashDL, FlashBP, JFlash
T2CA8 000:020.239   Bootloader: (Could not read)
T2CA8 000:021.549   TELNET listener socket opened on port 19021
T2CA8 000:021.680   WEBSRV WEBSRV_Init(): Starting webserver thread(s)
T2CA8 000:021.884   WEBSRV Webserver running on local port 19080
T2CA8 000:022.020   Looking for J-Link GUI Server exe at: D:\Program Files (x86)\keil_v5\ARM\Segger\JLinkGUIServer.exe
T2CA8 000:022.087   Looking for J-Link GUI Server exe at: D:\Program Files\SEGGER\JLink\JLinkGUIServer.exe
T2CA8 000:022.099   Forking J-Link GUI Server: D:\Program Files\SEGGER\JLink\JLinkGUIServer.exe
T2CA8 000:330.813   Failed to connect to J-Link GUI Server.
T2CA8 000:330.865 - 323.543ms returns "O.K."
T2CA8 000:330.880 JLINK_GetEmuCaps()
T2CA8 000:330.888 - 0.005ms returns 0xB9FF7BBF
T2CA8 000:330.895 JLINK_TIF_GetAvailable(...)
T2CA8 000:331.205 - 0.309ms
T2CA8 000:331.219 JLINK_SetErrorOutHandler(...)
T2CA8 000:331.224 - 0.004ms
T2CA8 000:333.634 JLINK_ExecCommand("ProjectFile = "E:\github\Project_Demo\Ñ§Ï°Àý³Ì\Display_BAT32G135\Project\JLinkSettings.ini"", ...). 
T2CA8 000:374.156   Ref file found at: D:\Program Files (x86)\keil_v5\ARM\Segger\JLinkDevices.ref
T2CA8 000:374.275   REF file references invalid XML file: D:\Program Files\SEGGER\JLink\JLinkDevices.xml
T2CA8 000:376.559   Device "CORTEX-M0" selected.
T2CA8 000:376.896 - 43.262ms returns 0x00
T2CA8 000:379.128 JLINK_ExecCommand("Device = BAT32G135GE32FP", ...). 
T2CA8 000:380.934   Device "CORTEX-M0" selected.
T2CA8 000:381.341 - 2.198ms returns 0x00
T2CA8 000:381.355 JLINK_ExecCommand("DisableConnectionTimeout", ...). 
T2CA8 000:381.361 - 0.001ms returns 0x01
T2CA8 000:381.366 JLINK_GetHardwareVersion()
T2CA8 000:381.376 - 0.003ms returns 96000
T2CA8 000:381.381 JLINK_GetDLLVersion()
T2CA8 000:381.384 - 0.003ms returns 79204
T2CA8 000:381.388 JLINK_GetOEMString(...)
T2CA8 000:381.393 JLINK_GetFirmwareString(...)
T2CA8 000:381.396 - 0.003ms
T2CA8 000:386.529 JLINK_GetDLLVersion()
T2CA8 000:386.547 - 0.017ms returns 79204
T2CA8 000:386.552 JLINK_GetCompileDateTime()
T2CA8 000:386.555 - 0.003ms
T2CA8 000:388.049 JLINK_GetFirmwareString(...)
T2CA8 000:388.073 - 0.024ms
T2CA8 000:389.792 JLINK_GetHardwareVersion()
T2CA8 000:389.815 - 0.021ms returns 96000
T2CA8 000:391.280 JLINK_GetSN()
T2CA8 000:391.298 - 0.018ms returns 63610034
T2CA8 000:392.732 JLINK_GetOEMString(...)
T2CA8 000:395.401 JLINK_TIF_Select(JLINKARM_TIF_SWD)
T2CA8 000:396.885 - 1.484ms returns 0x00
T2CA8 000:396.904 JLINK_HasError()
T2CA8 000:396.936 JLINK_SetSpeed(5000)
T2CA8 000:397.108 - 0.173ms
T2CA8 000:397.118 JLINK_GetId()
T2CA8 000:400.226   Found SW-DP with ID 0x0BC11477
T2CA8 000:404.544   DPIDR: 0x0BC11477
T2CA8 000:406.904   CoreSight SoC-400 or earlier
T2CA8 000:408.407   Scanning AP map to find all available APs
T2CA8 000:411.039   AP[1]: Stopped AP scan as end of AP map has been reached
T2CA8 000:413.243   AP[0]: AHB-AP (IDR: 0x04770031)
T2CA8 000:414.653   Iterating through AP map to find AHB-AP to use
T2CA8 000:416.865   AP[0]: Core found
T2CA8 000:418.730   AP[0]: AHB-AP ROM base: 0xE00FF000
T2CA8 000:421.182   CPUID register: 0x410CC601. Implementer code: 0x41 (ARM)
T2CA8 000:422.580   Found Cortex-M0 r0p1, Little endian.
T2CA8 000:423.134   -- Max. mem block: 0x00010C40
T2CA8 000:423.507   CPU_ReadMem(4 bytes @ 0xE000EDF0)
T2CA8 000:423.783   CPU_WriteMem(4 bytes @ 0xE000EDF0)
T2CA8 000:424.199   CPU_ReadMem(4 bytes @ 0xE0002000)
T2CA8 000:426.995   FPUnit: 4 code (BP) slots and 0 literal slots
T2CA8 000:427.018   CPU_ReadMem(4 bytes @ 0xE000EDFC)
T2CA8 000:427.351   CPU_WriteMem(4 bytes @ 0xE000EDFC)
T2CA8 000:427.689   CPU_ReadMem(4 bytes @ 0xE0001000)
T2CA8 000:428.009   CPU_WriteMem(4 bytes @ 0xE0001000)
T2CA8 000:429.707   CoreSight components:
T2CA8 000:430.970   ROMTbl[0] @ E00FF000
T2CA8 000:430.982   CPU_ReadMem(64 bytes @ 0xE00FF000)
T2CA8 000:431.526   CPU_ReadMem(32 bytes @ 0xE000EFE0)
T2CA8 000:433.075   [0][0]: E000E000 CID B105E00D PID 000BB008 SCS
T2CA8 000:433.085   CPU_ReadMem(32 bytes @ 0xE0001FE0)
T2CA8 000:434.621   [0][1]: E0001000 CID B105E00D PID 000BB00A DWT
T2CA8 000:434.631   CPU_ReadMem(32 bytes @ 0xE0002FE0)
T2CA8 000:436.142   [0][2]: E0002000 CID B105E00D PID 000BB00B FPB
T2CA8 000:436.454 - 39.335ms returns 0x0BC11477
T2CA8 000:436.464 JLINK_GetDLLVersion()
T2CA8 000:436.468 - 0.003ms returns 79204
T2CA8 000:436.501 JLINK_CORE_GetFound()
T2CA8 000:436.505 - 0.003ms returns 0x60000FF
T2CA8 000:436.512 JLINK_GetDebugInfo(0x100 = JLINKARM_ROM_TABLE_ADDR_INDEX)
T2CA8 000:436.516   Value=0xE00FF000
T2CA8 000:436.521 - 0.008ms returns 0
T2CA8 000:437.608 JLINK_GetDebugInfo(0x100 = JLINKARM_ROM_TABLE_ADDR_INDEX)
T2CA8 000:437.615   Value=0xE00FF000
T2CA8 000:437.620 - 0.011ms returns 0
T2CA8 000:437.624 JLINK_GetDebugInfo(0x101 = JLINKARM_DEBUG_INFO_ETM_ADDR_INDEX)
T2CA8 000:437.628   Value=0x00000000
T2CA8 000:437.633 - 0.008ms returns 0
T2CA8 000:437.637 JLINK_ReadMemEx(0xE0041FF0, 0x10 Bytes, Flags = 0x02000004)
T2CA8 000:437.667   CPU_ReadMem(16 bytes @ 0xE0041FF0)
T2CA8 000:437.995   Data:  00 00 00 00 00 00 00 00 00 00 00 00 00 00 00 00
T2CA8 000:438.000 - 0.362ms returns 16 (0x10)
T2CA8 000:438.005 JLINK_GetDebugInfo(0x102 = JLINKARM_DEBUG_INFO_MTB_ADDR_INDEX)
T2CA8 000:438.008   Value=0x00000000
T2CA8 000:438.013 - 0.008ms returns 0
T2CA8 000:438.017 JLINK_GetDebugInfo(0x103 = JLINKARM_DEBUG_INFO_TPIU_ADDR_INDEX)
T2CA8 000:438.020   Value=0x00000000
T2CA8 000:438.025 - 0.007ms returns 0
T2CA8 000:438.029 JLINK_ReadMemEx(0xE0040FF0, 0x10 Bytes, Flags = 0x02000004)
T2CA8 000:438.034   CPU_ReadMem(16 bytes @ 0xE0040FF0)
T2CA8 000:438.396   Data:  00 00 00 00 00 00 00 00 00 00 00 00 00 00 00 00
T2CA8 000:438.406 - 0.377ms returns 16 (0x10)
T2CA8 000:438.413 JLINK_GetDebugInfo(0x104 = JLINKARM_DEBUG_INFO_ITM_ADDR_INDEX)
T2CA8 000:438.417   Value=0xE0000000
T2CA8 000:438.424 - 0.011ms returns 0
T2CA8 000:438.428 JLINK_GetDebugInfo(0x105 = JLINKARM_DEBUG_INFO_DWT_ADDR_INDEX)
T2CA8 000:438.431   Value=0xE0001000
T2CA8 000:438.436 - 0.008ms returns 0
T2CA8 000:438.441 JLINK_GetDebugInfo(0x106 = JLINKARM_DEBUG_INFO_FPB_ADDR_INDEX)
T2CA8 000:438.445   Value=0xE0002000
T2CA8 000:438.451 - 0.010ms returns 0
T2CA8 000:438.456 JLINK_GetDebugInfo(0x107 = JLINKARM_DEBUG_INFO_NVIC_ADDR_INDEX)
T2CA8 000:438.460   Value=0xE000E000
T2CA8 000:438.466 - 0.010ms returns 0
T2CA8 000:438.471 JLINK_GetDebugInfo(0x10C = JLINKARM_DEBUG_INFO_DBG_ADDR_INDEX)
T2CA8 000:438.475   Value=0xE000EDF0
T2CA8 000:438.481 - 0.010ms returns 0
T2CA8 000:438.490 JLINK_GetDebugInfo(0x01 = Unknown)
T2CA8 000:438.495   Value=0x00000000
T2CA8 000:438.501 - 0.014ms returns 0
T2CA8 000:438.507 JLINK_ReadMemU32(0xE000ED00, 0x1 Items)
T2CA8 000:438.517   CPU_ReadMem(4 bytes @ 0xE000ED00)
T2CA8 000:438.876   Data:  01 C6 0C 41
T2CA8 000:438.886   Debug reg: CPUID
T2CA8 000:438.892 - 0.385ms returns 1 (0x1)
T2CA8 000:438.898 JLINK_GetDebugInfo(0x10F = JLINKARM_DEBUG_INFO_HAS_CORTEX_M_SECURITY_EXT_INDEX)
T2CA8 000:438.901   Value=0x00000000
T2CA8 000:438.906 - 0.008ms returns 0
T2CA8 000:438.911 JLINK_HasError()
T2CA8 000:438.916 JLINK_SetResetType(JLINKARM_CM3_RESET_TYPE_NORMAL)
T2CA8 000:438.919 - 0.003ms returns JLINKARM_CM3_RESET_TYPE_NORMAL
T2CA8 000:438.924 JLINK_Reset()
T2CA8 000:438.945   CPU is running
T2CA8 000:438.950   CPU_WriteMem(4 bytes @ 0xE000EDF0)
T2CA8 000:439.196   CPU is running
T2CA8 000:439.256   CPU_WriteMem(4 bytes @ 0xE000EDFC)
T2CA8 000:440.979   Reset: Halt core after reset via DEMCR.VC_CORERESET.
T2CA8 000:442.708   Reset: Reset device via AIRCR.SYSRESETREQ.
T2CA8 000:442.719   CPU is running
T2CA8 000:442.726   CPU_WriteMem(4 bytes @ 0xE000ED0C)
T2CA8 000:496.613   CPU_ReadMem(4 bytes @ 0xE000EDF0)
T2CA8 000:496.874   CPU_ReadMem(4 bytes @ 0xE000EDF0)
T2CA8 000:499.135   CPU_WriteMem(4 bytes @ 0xE000EDFC)
T2CA8 000:504.837   CPU_ReadMem(4 bytes @ 0xE000EDF0)
T2CA8 000:507.005   CPU_WriteMem(4 bytes @ 0xE0002000)
T2CA8 000:507.321   CPU_ReadMem(4 bytes @ 0xE000EDFC)
T2CA8 000:507.621   CPU_ReadMem(4 bytes @ 0xE0001000)
T2CA8 000:507.923   CPU_WriteMem(4 bytes @ 0xE0001000)
T2CA8 000:508.268 - 69.344ms
T2CA8 000:508.285 JLINK_Halt()
T2CA8 000:508.289 - 0.003ms returns 0x00
T2CA8 000:508.296 JLINK_ReadMemU32(0xE000EDF0, 0x1 Items)
T2CA8 000:508.306   CPU_ReadMem(4 bytes @ 0xE000EDF0)
T2CA8 000:508.592   Data:  03 00 03 00
T2CA8 000:508.602   Debug reg: DHCSR
T2CA8 000:508.607 - 0.311ms returns 1 (0x1)
T2CA8 000:508.710 JLINK_WriteU32_64(0xE000EDF0, 0xA05F0003)
T2CA8 000:508.718   Debug reg: DHCSR
T2CA8 000:508.975   CPU_WriteMem(4 bytes @ 0xE000EDF0)
T2CA8 000:509.317 - 0.606ms returns 0 (0x00000000)
T2CA8 000:509.327 JLINK_WriteU32_64(0xE000EDFC, 0x01000000)
T2CA8 000:509.331   Debug reg: DEMCR
T2CA8 000:509.340   CPU_WriteMem(4 bytes @ 0xE000EDFC)
T2CA8 000:509.744 - 0.417ms returns 0 (0x00000000)
T2CA8 000:514.751 JLINK_GetHWStatus(...)
T2CA8 000:514.943 - 0.442ms returns 0
T2CA8 000:518.859 JLINK_GetNumBPUnits(Type = 0xFFFFFF00)
T2CA8 000:518.872 - 0.013ms returns 0x04
T2CA8 000:518.876 JLINK_GetNumBPUnits(Type = 0xF0)
T2CA8 000:518.880 - 0.003ms returns 0x2000
T2CA8 000:518.884 JLINK_GetNumWPUnits()
T2CA8 000:518.887 - 0.003ms returns 2
T2CA8 000:522.276 JLINK_GetSpeed()
T2CA8 000:522.301 - 0.026ms returns 4000
T2CA8 000:525.418 JLINK_ReadMemU32(0xE000E004, 0x1 Items)
T2CA8 000:525.450   CPU_ReadMem(4 bytes @ 0xE000E004)
T2CA8 000:526.018   Data:  00 00 00 00
T2CA8 000:526.030 - 0.611ms returns 1 (0x1)
T2CA8 000:526.041 JLINK_Halt()
T2CA8 000:526.045 - 0.004ms returns 0x00
T2CA8 000:526.050 JLINK_IsHalted()
T2CA8 000:526.055 - 0.004ms returns TRUE
T2CA8 000:529.926 JLINK_WriteMem(0x20000000, 0x11C Bytes, ...)
T2CA8 000:529.936   Data:  00 BE 0A E0 0D 78 2D 06 68 40 08 24 40 00 00 D3 ...
T2CA8 000:530.293   CPU_WriteMem(284 bytes @ 0x20000000)
T2CA8 000:531.706 - 1.779ms returns 0x11C
T2CA8 000:531.734 JLINK_HasError()
T2CA8 000:531.740 JLINK_WriteReg(R0, 0x00000000)
T2CA8 000:531.747 - 0.006ms returns 0
T2CA8 000:531.751 JLINK_WriteReg(R1, 0x00B71B00)
T2CA8 000:531.755 - 0.003ms returns 0
T2CA8 000:531.758 JLINK_WriteReg(R2, 0x00000001)
T2CA8 000:531.762 - 0.003ms returns 0
T2CA8 000:531.766 JLINK_WriteReg(R3, 0x00000000)
T2CA8 000:531.769 - 0.003ms returns 0
T2CA8 000:531.773 JLINK_WriteReg(R4, 0x00000000)
T2CA8 000:531.777 - 0.003ms returns 0
T2CA8 000:531.781 JLINK_WriteReg(R5, 0x00000000)
T2CA8 000:531.784 - 0.003ms returns 0
T2CA8 000:531.788 JLINK_WriteReg(R6, 0x00000000)
T2CA8 000:531.792 - 0.003ms returns 0
T2CA8 000:531.796 JLINK_WriteReg(R7, 0x00000000)
T2CA8 000:531.799 - 0.003ms returns 0
T2CA8 000:531.816 JLINK_WriteReg(R8, 0x00000000)
T2CA8 000:531.820 - 0.017ms returns 0
T2CA8 000:531.824 JLINK_WriteReg(R9, 0x20000118)
T2CA8 000:531.828 - 0.003ms returns 0
T2CA8 000:531.832 JLINK_WriteReg(R10, 0x00000000)
T2CA8 000:531.835 - 0.003ms returns 0
T2CA8 000:531.839 JLINK_WriteReg(R11, 0x00000000)
T2CA8 000:531.843 - 0.003ms returns 0
T2CA8 000:531.847 JLINK_WriteReg(R12, 0x00000000)
T2CA8 000:531.850 - 0.003ms returns 0
T2CA8 000:531.854 JLINK_WriteReg(R13 (SP), 0x20001000)
T2CA8 000:531.858 - 0.004ms returns 0
T2CA8 000:531.862 JLINK_WriteReg(R14, 0x20000001)
T2CA8 000:531.866 - 0.003ms returns 0
T2CA8 000:531.872 JLINK_WriteReg(R15 (PC), 0x20000038)
T2CA8 000:531.876 - 0.006ms returns 0
T2CA8 000:531.880 JLINK_WriteReg(XPSR, 0x01000000)
T2CA8 000:531.884 - 0.003ms returns 0
T2CA8 000:531.891 JLINK_WriteReg(MSP, 0x20001000)
T2CA8 000:531.896 - 0.005ms returns 0
T2CA8 000:531.900 JLINK_WriteReg(PSP, 0x20001000)
T2CA8 000:531.904 - 0.003ms returns 0
T2CA8 000:531.908 JLINK_WriteReg(CFBP, 0x00000000)
T2CA8 000:531.911 - 0.003ms returns 0
T2CA8 000:531.916 JLINK_SetBPEx(Addr = 0x20000000, Type = 0xFFFFFFF2)
T2CA8 000:531.925   CPU_ReadMem(4 bytes @ 0x20000000)
T2CA8 000:532.244   CPU_WriteMem(4 bytes @ 0x20000000)
T2CA8 000:532.646   CPU_ReadMem(4 bytes @ 0x20000000)
T2CA8 000:533.141   CPU_WriteMem(4 bytes @ 0x20000000)
T2CA8 000:533.457   CPU_ReadMem(2 bytes @ 0x20000000)
T2CA8 000:533.845 - 1.928ms returns 0x00000001
T2CA8 000:533.858 JLINK_Go()
T2CA8 000:533.864   CPU_WriteMem(2 bytes @ 0x20000000)
T2CA8 000:534.129   CPU_ReadMem(4 bytes @ 0xE0001000)
T2CA8 000:534.338   CPU_WriteMem(4 bytes @ 0xE0001000)
T2CA8 000:534.588   CPU_WriteMem(4 bytes @ 0xE0002008)
T2CA8 000:534.593   CPU_WriteMem(4 bytes @ 0xE000200C)
T2CA8 000:534.598   CPU_WriteMem(4 bytes @ 0xE0002010)
T2CA8 000:534.603   CPU_WriteMem(4 bytes @ 0xE0002014)
T2CA8 000:535.321   CPU_WriteMem(4 bytes @ 0xE0001004)
T2CA8 000:538.830   Memory map 'after startup completion point' is active
T2CA8 000:538.849 - 4.991ms
T2CA8 000:538.860 JLINK_IsHalted()
T2CA8 000:540.823   CPU_ReadMem(2 bytes @ 0x20000000)
T2CA8 000:541.074 - 2.213ms returns TRUE
T2CA8 000:541.082 JLINK_ReadReg(R15 (PC))
T2CA8 000:541.087 - 0.005ms returns 0x20000000
T2CA8 000:541.127 JLINK_ClrBPEx(BPHandle = 0x00000001)
T2CA8 000:541.131 - 0.004ms returns 0x00
T2CA8 000:541.136 JLINK_ReadReg(R0)
T2CA8 000:541.140 - 0.003ms returns 0x00000000
T2CA8 000:541.886 JLINK_HasError()
T2CA8 000:541.900 JLINK_WriteReg(R0, 0x00000000)
T2CA8 000:541.906 - 0.005ms returns 0
T2CA8 000:541.910 JLINK_WriteReg(R1, 0x00B71B00)
T2CA8 000:541.913 - 0.003ms returns 0
T2CA8 000:541.917 JLINK_WriteReg(R2, 0x00000001)
T2CA8 000:541.921 - 0.003ms returns 0
T2CA8 000:541.925 JLINK_WriteReg(R3, 0x00000000)
T2CA8 000:541.928 - 0.003ms returns 0
T2CA8 000:541.932 JLINK_WriteReg(R4, 0x00000000)
T2CA8 000:541.936 - 0.003ms returns 0
T2CA8 000:541.940 JLINK_WriteReg(R5, 0x00000000)
T2CA8 000:541.943 - 0.003ms returns 0
T2CA8 000:541.947 JLINK_WriteReg(R6, 0x00000000)
T2CA8 000:541.951 - 0.003ms returns 0
T2CA8 000:541.955 JLINK_WriteReg(R7, 0x00000000)
T2CA8 000:541.958 - 0.003ms returns 0
T2CA8 000:541.962 JLINK_WriteReg(R8, 0x00000000)
T2CA8 000:541.966 - 0.003ms returns 0
T2CA8 000:541.970 JLINK_WriteReg(R9, 0x20000118)
T2CA8 000:541.973 - 0.003ms returns 0
T2CA8 000:541.977 JLINK_WriteReg(R10, 0x00000000)
T2CA8 000:541.981 - 0.003ms returns 0
T2CA8 000:541.985 JLINK_WriteReg(R11, 0x00000000)
T2CA8 000:541.989 - 0.003ms returns 0
T2CA8 000:541.992 JLINK_WriteReg(R12, 0x00000000)
T2CA8 000:541.996 - 0.003ms returns 0
T2CA8 000:542.000 JLINK_WriteReg(R13 (SP), 0x20001000)
T2CA8 000:542.004 - 0.004ms returns 0
T2CA8 000:542.008 JLINK_WriteReg(R14, 0x20000001)
T2CA8 000:542.011 - 0.003ms returns 0
T2CA8 000:542.016 JLINK_WriteReg(R15 (PC), 0x20000052)
T2CA8 000:542.020 - 0.004ms returns 0
T2CA8 000:542.024 JLINK_WriteReg(XPSR, 0x01000000)
T2CA8 000:542.027 - 0.003ms returns 0
T2CA8 000:542.031 JLINK_WriteReg(MSP, 0x20001000)
T2CA8 000:542.035 - 0.003ms returns 0
T2CA8 000:542.039 JLINK_WriteReg(PSP, 0x20001000)
T2CA8 000:542.042 - 0.003ms returns 0
T2CA8 000:542.046 JLINK_WriteReg(CFBP, 0x00000000)
T2CA8 000:542.050 - 0.003ms returns 0
T2CA8 000:542.054 JLINK_SetBPEx(Addr = 0x20000000, Type = 0xFFFFFFF2)
T2CA8 000:542.059 - 0.004ms returns 0x00000002
T2CA8 000:542.063 JLINK_Go()
T2CA8 000:542.072   CPU_ReadMem(4 bytes @ 0xE0001000)
T2CA8 000:544.123 - 2.058ms
T2CA8 000:544.137 JLINK_IsHalted()
T2CA8 000:544.469 - 0.331ms returns FALSE
T2CA8 000:544.479 JLINK_HasError()
T2CA8 000:554.992 JLINK_IsHalted()
T2CA8 000:555.349 - 0.357ms returns FALSE
T2CA8 000:555.368 JLINK_HasError()
T2CA8 000:557.031 JLINK_IsHalted()
T2CA8 000:557.410 - 0.378ms returns FALSE
T2CA8 000:557.420 JLINK_HasError()
T2CA8 000:559.008 JLINK_IsHalted()
T2CA8 000:559.365 - 0.356ms returns FALSE
T2CA8 000:559.373 JLINK_HasError()
T2CA8 000:561.005 JLINK_IsHalted()
T2CA8 000:561.277 - 0.272ms returns FALSE
T2CA8 000:561.282 JLINK_HasError()
T2CA8 000:562.731 JLINK_IsHalted()
T2CA8 000:563.006 - 0.274ms returns FALSE
T2CA8 000:563.031 JLINK_HasError()
T2CA8 000:564.452 JLINK_IsHalted()
T2CA8 000:564.864 - 0.412ms returns FALSE
T2CA8 000:564.869 JLINK_HasError()
T2CA8 000:566.413 JLINK_IsHalted()
T2CA8 000:568.579   CPU_ReadMem(2 bytes @ 0x20000000)
T2CA8 000:569.000 - 2.587ms returns TRUE
T2CA8 000:569.008 JLINK_ReadReg(R15 (PC))
T2CA8 000:569.013 - 0.005ms returns 0x20000000
T2CA8 000:569.017 JLINK_ClrBPEx(BPHandle = 0x00000002)
T2CA8 000:569.020 - 0.003ms returns 0x00
T2CA8 000:569.024 JLINK_ReadReg(R0)
T2CA8 000:569.028 - 0.003ms returns 0x00000000
T2CA8 000:621.225 JLINK_HasError()
T2CA8 000:621.253 JLINK_WriteReg(R0, 0x00000001)
T2CA8 000:621.264 - 0.010ms returns 0
T2CA8 000:621.268 JLINK_WriteReg(R1, 0x00B71B00)
T2CA8 000:621.272 - 0.004ms returns 0
T2CA8 000:621.277 JLINK_WriteReg(R2, 0x00000001)
T2CA8 000:621.281 - 0.004ms returns 0
T2CA8 000:621.285 JLINK_WriteReg(R3, 0x00000000)
T2CA8 000:621.289 - 0.004ms returns 0
T2CA8 000:621.293 JLINK_WriteReg(R4, 0x00000000)
T2CA8 000:621.297 - 0.004ms returns 0
T2CA8 000:621.301 JLINK_WriteReg(R5, 0x00000000)
T2CA8 000:621.305 - 0.003ms returns 0
T2CA8 000:621.310 JLINK_WriteReg(R6, 0x00000000)
T2CA8 000:621.314 - 0.004ms returns 0
T2CA8 000:621.318 JLINK_WriteReg(R7, 0x00000000)
T2CA8 000:621.322 - 0.003ms returns 0
T2CA8 000:621.326 JLINK_WriteReg(R8, 0x00000000)
T2CA8 000:621.330 - 0.004ms returns 0
T2CA8 000:621.335 JLINK_WriteReg(R9, 0x20000118)
T2CA8 000:621.339 - 0.003ms returns 0
T2CA8 000:621.343 JLINK_WriteReg(R10, 0x00000000)
T2CA8 000:621.347 - 0.003ms returns 0
T2CA8 000:621.351 JLINK_WriteReg(R11, 0x00000000)
T2CA8 000:621.355 - 0.004ms returns 0
T2CA8 000:621.359 JLINK_WriteReg(R12, 0x00000000)
T2CA8 000:621.363 - 0.003ms returns 0
T2CA8 000:621.368 JLINK_WriteReg(R13 (SP), 0x20001000)
T2CA8 000:621.373 - 0.005ms returns 0
T2CA8 000:621.377 JLINK_WriteReg(R14, 0x20000001)
T2CA8 000:621.381 - 0.004ms returns 0
T2CA8 000:621.386 JLINK_WriteReg(R15 (PC), 0x20000046)
T2CA8 000:621.390 - 0.004ms returns 0
T2CA8 000:621.394 JLINK_WriteReg(XPSR, 0x01000000)
T2CA8 000:621.398 - 0.004ms returns 0
T2CA8 000:621.403 JLINK_WriteReg(MSP, 0x20001000)
T2CA8 000:621.406 - 0.003ms returns 0
T2CA8 000:621.411 JLINK_WriteReg(PSP, 0x20001000)
T2CA8 000:621.415 - 0.003ms returns 0
T2CA8 000:621.419 JLINK_WriteReg(CFBP, 0x00000000)
T2CA8 000:621.423 - 0.004ms returns 0
T2CA8 000:621.428 JLINK_SetBPEx(Addr = 0x20000000, Type = 0xFFFFFFF2)
T2CA8 000:621.433 - 0.005ms returns 0x00000003
T2CA8 000:621.437 JLINK_Go()
T2CA8 000:621.452   CPU_ReadMem(4 bytes @ 0xE0001000)
T2CA8 000:624.460 - 3.022ms
T2CA8 000:624.485 JLINK_IsHalted()
T2CA8 000:626.970   CPU_ReadMem(2 bytes @ 0x20000000)
T2CA8 000:627.539 - 3.053ms returns TRUE
T2CA8 000:627.555 JLINK_ReadReg(R15 (PC))
T2CA8 000:627.565 - 0.009ms returns 0x20000000
T2CA8 000:627.572 JLINK_ClrBPEx(BPHandle = 0x00000003)
T2CA8 000:627.578 - 0.006ms returns 0x00
T2CA8 000:627.585 JLINK_ReadReg(R0)
T2CA8 000:627.590 - 0.005ms returns 0x00000000
T2CA8 000:633.075 JLINK_WriteMem(0x20000000, 0x11C Bytes, ...)
T2CA8 000:633.089   Data:  00 BE 0A E0 0D 78 2D 06 68 40 08 24 40 00 00 D3 ...
T2CA8 000:633.110   CPU_WriteMem(284 bytes @ 0x20000000)
T2CA8 000:634.858 - 1.782ms returns 0x11C
T2CA8 000:634.894 JLINK_HasError()
T2CA8 000:634.901 JLINK_WriteReg(R0, 0x00000000)
T2CA8 000:634.909 - 0.007ms returns 0
T2CA8 000:634.914 JLINK_WriteReg(R1, 0x00B71B00)
T2CA8 000:634.919 - 0.004ms returns 0
T2CA8 000:634.924 JLINK_WriteReg(R2, 0x00000002)
T2CA8 000:634.928 - 0.004ms returns 0
T2CA8 000:634.933 JLINK_WriteReg(R3, 0x00000000)
T2CA8 000:634.938 - 0.004ms returns 0
T2CA8 000:634.943 JLINK_WriteReg(R4, 0x00000000)
T2CA8 000:634.947 - 0.004ms returns 0
T2CA8 000:634.952 JLINK_WriteReg(R5, 0x00000000)
T2CA8 000:634.962 - 0.009ms returns 0
T2CA8 000:634.970 JLINK_WriteReg(R6, 0x00000000)
T2CA8 000:634.975 - 0.004ms returns 0
T2CA8 000:634.980 JLINK_WriteReg(R7, 0x00000000)
T2CA8 000:634.984 - 0.004ms returns 0
T2CA8 000:634.989 JLINK_WriteReg(R8, 0x00000000)
T2CA8 000:634.994 - 0.004ms returns 0
T2CA8 000:634.999 JLINK_WriteReg(R9, 0x20000118)
T2CA8 000:635.003 - 0.004ms returns 0
T2CA8 000:635.008 JLINK_WriteReg(R10, 0x00000000)
T2CA8 000:635.012 - 0.004ms returns 0
T2CA8 000:635.017 JLINK_WriteReg(R11, 0x00000000)
T2CA8 000:635.022 - 0.004ms returns 0
T2CA8 000:635.027 JLINK_WriteReg(R12, 0x00000000)
T2CA8 000:635.031 - 0.004ms returns 0
T2CA8 000:635.036 JLINK_WriteReg(R13 (SP), 0x20001000)
T2CA8 000:635.042 - 0.005ms returns 0
T2CA8 000:635.047 JLINK_WriteReg(R14, 0x20000001)
T2CA8 000:635.051 - 0.004ms returns 0
T2CA8 000:635.056 JLINK_WriteReg(R15 (PC), 0x20000038)
T2CA8 000:635.061 - 0.004ms returns 0
T2CA8 000:635.066 JLINK_WriteReg(XPSR, 0x01000000)
T2CA8 000:635.070 - 0.004ms returns 0
T2CA8 000:635.075 JLINK_WriteReg(MSP, 0x20001000)
T2CA8 000:635.080 - 0.004ms returns 0
T2CA8 000:635.085 JLINK_WriteReg(PSP, 0x20001000)
T2CA8 000:635.089 - 0.004ms returns 0
T2CA8 000:635.094 JLINK_WriteReg(CFBP, 0x00000000)
T2CA8 000:635.099 - 0.004ms returns 0
T2CA8 000:635.104 JLINK_SetBPEx(Addr = 0x20000000, Type = 0xFFFFFFF2)
T2CA8 000:635.116   CPU_ReadMem(4 bytes @ 0x20000000)
T2CA8 000:635.787   CPU_WriteMem(4 bytes @ 0x20000000)
T2CA8 000:636.411   CPU_ReadMem(4 bytes @ 0x20000000)
T2CA8 000:636.909   CPU_WriteMem(4 bytes @ 0x20000000)
T2CA8 000:637.479   CPU_ReadMem(2 bytes @ 0x20000000)
T2CA8 000:638.042 - 2.937ms returns 0x00000004
T2CA8 000:638.054 JLINK_Go()
T2CA8 000:638.063   CPU_WriteMem(2 bytes @ 0x20000000)
T2CA8 000:638.439   CPU_ReadMem(4 bytes @ 0xE0001000)
T2CA8 000:641.354 - 3.298ms
T2CA8 000:641.376 JLINK_IsHalted()
T2CA8 000:643.613   CPU_ReadMem(2 bytes @ 0x20000000)
T2CA8 000:643.917 - 2.540ms returns TRUE
T2CA8 000:643.935 JLINK_ReadReg(R15 (PC))
T2CA8 000:643.944 - 0.009ms returns 0x20000000
T2CA8 000:643.952 JLINK_ClrBPEx(BPHandle = 0x00000004)
T2CA8 000:643.957 - 0.005ms returns 0x00
T2CA8 000:643.963 JLINK_ReadReg(R0)
T2CA8 000:643.968 - 0.005ms returns 0x00000000
T2CA8 000:644.447 JLINK_WriteMem(0x2000011C, 0x200 Bytes, ...)
T2CA8 000:644.458   Data:  10 07 00 20 DD 00 00 00 E5 00 00 00 E7 00 00 00 ...
T2CA8 000:644.474   CPU_WriteMem(512 bytes @ 0x2000011C)
T2CA8 000:646.653 - 2.205ms returns 0x200
T2CA8 000:646.666 JLINK_HasError()
T2CA8 000:646.750 JLINK_WriteReg(R0, 0x00000000)
T2CA8 000:646.761 - 0.011ms returns 0
T2CA8 000:646.766 JLINK_WriteReg(R1, 0x00000200)
T2CA8 000:646.770 - 0.003ms returns 0
T2CA8 000:646.774 JLINK_WriteReg(R2, 0x2000011C)
T2CA8 000:646.777 - 0.003ms returns 0
T2CA8 000:646.781 JLINK_WriteReg(R3, 0x00000000)
T2CA8 000:646.785 - 0.003ms returns 0
T2CA8 000:646.789 JLINK_WriteReg(R4, 0x00000000)
T2CA8 000:646.792 - 0.003ms returns 0
T2CA8 000:646.796 JLINK_WriteReg(R5, 0x00000000)
T2CA8 000:646.800 - 0.003ms returns 0
T2CA8 000:646.804 JLINK_WriteReg(R6, 0x00000000)
T2CA8 000:646.807 - 0.003ms returns 0
T2CA8 000:646.811 JLINK_WriteReg(R7, 0x00000000)
T2CA8 000:646.815 - 0.003ms returns 0
T2CA8 000:646.819 JLINK_WriteReg(R8, 0x00000000)
T2CA8 000:646.822 - 0.003ms returns 0
T2CA8 000:646.826 JLINK_WriteReg(R9, 0x20000118)
T2CA8 000:646.830 - 0.003ms returns 0
T2CA8 000:646.834 JLINK_WriteReg(R10, 0x00000000)
T2CA8 000:646.837 - 0.003ms returns 0
T2CA8 000:646.841 JLINK_WriteReg(R11, 0x00000000)
T2CA8 000:646.845 - 0.003ms returns 0
T2CA8 000:646.849 JLINK_WriteReg(R12, 0x00000000)
T2CA8 000:646.852 - 0.003ms returns 0
T2CA8 000:646.856 JLINK_WriteReg(R13 (SP), 0x20001000)
T2CA8 000:646.860 - 0.004ms returns 0
T2CA8 000:646.864 JLINK_WriteReg(R14, 0x20000001)
T2CA8 000:646.868 - 0.003ms returns 0
T2CA8 000:646.872 JLINK_WriteReg(R15 (PC), 0x200000CE)
T2CA8 000:646.875 - 0.003ms returns 0
T2CA8 000:646.879 JLINK_WriteReg(XPSR, 0x01000000)
T2CA8 000:646.883 - 0.003ms returns 0
T2CA8 000:646.887 JLINK_WriteReg(MSP, 0x20001000)
T2CA8 000:646.898 - 0.011ms returns 0
T2CA8 000:646.902 JLINK_WriteReg(PSP, 0x20001000)
T2CA8 000:646.905 - 0.003ms returns 0
T2CA8 000:646.909 JLINK_WriteReg(CFBP, 0x00000000)
T2CA8 000:646.912 - 0.003ms returns 0
T2CA8 000:646.917 JLINK_SetBPEx(Addr = 0x20000000, Type = 0xFFFFFFF2)
T2CA8 000:646.921 - 0.004ms returns 0x00000005
T2CA8 000:646.926 JLINK_Go()
T2CA8 000:646.935   CPU_ReadMem(4 bytes @ 0xE0001000)
T2CA8 000:649.283 - 2.355ms
T2CA8 000:649.300 JLINK_IsHalted()
T2CA8 000:649.584 - 0.283ms returns FALSE
T2CA8 000:649.592 JLINK_HasError()
T2CA8 000:653.521 JLINK_IsHalted()
T2CA8 000:653.820 - 0.299ms returns FALSE
T2CA8 000:653.826 JLINK_HasError()
T2CA8 000:655.515 JLINK_IsHalted()
T2CA8 000:655.854 - 0.338ms returns FALSE
T2CA8 000:655.869 JLINK_HasError()
T2CA8 000:657.497 JLINK_IsHalted()
T2CA8 000:657.792 - 0.295ms returns FALSE
T2CA8 000:657.798 JLINK_HasError()
T2CA8 000:659.522 JLINK_IsHalted()
T2CA8 000:659.914 - 0.392ms returns FALSE
T2CA8 000:659.924 JLINK_HasError()
T2CA8 000:661.758 JLINK_IsHalted()
T2CA8 000:663.935   CPU_ReadMem(2 bytes @ 0x20000000)
T2CA8 000:664.433 - 2.669ms returns TRUE
T2CA8 000:664.446 JLINK_ReadReg(R15 (PC))
T2CA8 000:664.453 - 0.007ms returns 0x20000000
T2CA8 000:664.458 JLINK_ClrBPEx(BPHandle = 0x00000005)
T2CA8 000:664.462 - 0.004ms returns 0x00
T2CA8 000:664.466 JLINK_ReadReg(R0)
T2CA8 000:664.470 - 0.003ms returns 0x00000000
T2CA8 000:664.869 JLINK_WriteMem(0x2000011C, 0x200 Bytes, ...)
T2CA8 000:664.876   Data:  01 20 00 21 00 9F 00 F0 E7 F9 38 18 4D 41 00 90 ...
T2CA8 000:664.895   CPU_WriteMem(512 bytes @ 0x2000011C)
T2CA8 000:667.347 - 2.478ms returns 0x200
T2CA8 000:667.362 JLINK_HasError()
T2CA8 000:667.367 JLINK_WriteReg(R0, 0x00000200)
T2CA8 000:667.374 - 0.007ms returns 0
T2CA8 000:667.379 JLINK_WriteReg(R1, 0x00000200)
T2CA8 000:667.382 - 0.003ms returns 0
T2CA8 000:667.386 JLINK_WriteReg(R2, 0x2000011C)
T2CA8 000:667.390 - 0.003ms returns 0
T2CA8 000:667.394 JLINK_WriteReg(R3, 0x00000000)
T2CA8 000:667.397 - 0.003ms returns 0
T2CA8 000:667.401 JLINK_WriteReg(R4, 0x00000000)
T2CA8 000:667.405 - 0.003ms returns 0
T2CA8 000:667.409 JLINK_WriteReg(R5, 0x00000000)
T2CA8 000:667.412 - 0.003ms returns 0
T2CA8 000:667.416 JLINK_WriteReg(R6, 0x00000000)
T2CA8 000:667.420 - 0.003ms returns 0
T2CA8 000:667.424 JLINK_WriteReg(R7, 0x00000000)
T2CA8 000:667.427 - 0.003ms returns 0
T2CA8 000:667.431 JLINK_WriteReg(R8, 0x00000000)
T2CA8 000:667.435 - 0.003ms returns 0
T2CA8 000:667.439 JLINK_WriteReg(R9, 0x20000118)
T2CA8 000:667.442 - 0.003ms returns 0
T2CA8 000:667.446 JLINK_WriteReg(R10, 0x00000000)
T2CA8 000:667.450 - 0.003ms returns 0
T2CA8 000:667.454 JLINK_WriteReg(R11, 0x00000000)
T2CA8 000:667.457 - 0.003ms returns 0
T2CA8 000:667.461 JLINK_WriteReg(R12, 0x00000000)
T2CA8 000:667.465 - 0.003ms returns 0
T2CA8 000:667.469 JLINK_WriteReg(R13 (SP), 0x20001000)
T2CA8 000:667.473 - 0.004ms returns 0
T2CA8 000:667.477 JLINK_WriteReg(R14, 0x20000001)
T2CA8 000:667.480 - 0.003ms returns 0
T2CA8 000:667.484 JLINK_WriteReg(R15 (PC), 0x200000CE)
T2CA8 000:667.488 - 0.003ms returns 0
T2CA8 000:667.492 JLINK_WriteReg(XPSR, 0x01000000)
T2CA8 000:667.496 - 0.003ms returns 0
T2CA8 000:667.499 JLINK_WriteReg(MSP, 0x20001000)
T2CA8 000:667.503 - 0.003ms returns 0
T2CA8 000:667.507 JLINK_WriteReg(PSP, 0x20001000)
T2CA8 000:667.511 - 0.003ms returns 0
T2CA8 000:667.514 JLINK_WriteReg(CFBP, 0x00000000)
T2CA8 000:667.518 - 0.003ms returns 0
T2CA8 000:667.522 JLINK_SetBPEx(Addr = 0x20000000, Type = 0xFFFFFFF2)
T2CA8 000:667.527 - 0.004ms returns 0x00000006
T2CA8 000:667.535 JLINK_Go()
T2CA8 000:667.544   CPU_ReadMem(4 bytes @ 0xE0001000)
T2CA8 000:670.314 - 2.778ms
T2CA8 000:670.330 JLINK_IsHalted()
T2CA8 000:670.821 - 0.490ms returns FALSE
T2CA8 000:670.833 JLINK_HasError()
T2CA8 000:672.721 JLINK_IsHalted()
T2CA8 000:673.237 - 0.515ms returns FALSE
T2CA8 000:673.248 JLINK_HasError()
T2CA8 000:674.823 JLINK_IsHalted()
T2CA8 000:675.306 - 0.481ms returns FALSE
T2CA8 000:675.326 JLINK_HasError()
T2CA8 000:676.469 JLINK_IsHalted()
T2CA8 000:676.984 - 0.513ms returns FALSE
T2CA8 000:676.997 JLINK_HasError()
T2CA8 000:678.494 JLINK_IsHalted()
T2CA8 000:679.061 - 0.566ms returns FALSE
T2CA8 000:679.078 JLINK_HasError()
T2CA8 000:680.484 JLINK_IsHalted()
T2CA8 000:681.070 - 0.585ms returns FALSE
T2CA8 000:681.090 JLINK_HasError()
T2CA8 000:682.491 JLINK_IsHalted()
T2CA8 000:684.726   CPU_ReadMem(2 bytes @ 0x20000000)
T2CA8 000:685.308 - 2.815ms returns TRUE
T2CA8 000:685.332 JLINK_ReadReg(R15 (PC))
T2CA8 000:685.348 - 0.015ms returns 0x20000000
T2CA8 000:685.359 JLINK_ClrBPEx(BPHandle = 0x00000006)
T2CA8 000:685.369 - 0.009ms returns 0x00
T2CA8 000:685.379 JLINK_ReadReg(R0)
T2CA8 000:685.392 - 0.012ms returns 0x00000000
T2CA8 000:686.325 JLINK_WriteMem(0x2000011C, 0x200 Bytes, ...)
T2CA8 000:686.345   Data:  03 46 00 E0 03 23 9C 46 C1 1A 0A AE 0A E0 5F 00 ...
T2CA8 000:686.372   CPU_WriteMem(512 bytes @ 0x2000011C)
T2CA8 000:688.731 - 2.405ms returns 0x200
T2CA8 000:688.768 JLINK_HasError()
T2CA8 000:688.780 JLINK_WriteReg(R0, 0x00000400)
T2CA8 000:688.795 - 0.015ms returns 0
T2CA8 000:688.805 JLINK_WriteReg(R1, 0x00000200)
T2CA8 000:688.816 - 0.011ms returns 0
T2CA8 000:688.829 JLINK_WriteReg(R2, 0x2000011C)
T2CA8 000:688.839 - 0.010ms returns 0
T2CA8 000:688.848 JLINK_WriteReg(R3, 0x00000000)
T2CA8 000:688.857 - 0.008ms returns 0
T2CA8 000:688.866 JLINK_WriteReg(R4, 0x00000000)
T2CA8 000:688.875 - 0.008ms returns 0
T2CA8 000:688.884 JLINK_WriteReg(R5, 0x00000000)
T2CA8 000:688.893 - 0.008ms returns 0
T2CA8 000:688.902 JLINK_WriteReg(R6, 0x00000000)
T2CA8 000:688.911 - 0.008ms returns 0
T2CA8 000:688.923 JLINK_WriteReg(R7, 0x00000000)
T2CA8 000:688.935 - 0.011ms returns 0
T2CA8 000:688.947 JLINK_WriteReg(R8, 0x00000000)
T2CA8 000:688.958 - 0.011ms returns 0
T2CA8 000:688.970 JLINK_WriteReg(R9, 0x20000118)
T2CA8 000:688.982 - 0.012ms returns 0
T2CA8 000:688.994 JLINK_WriteReg(R10, 0x00000000)
T2CA8 000:689.006 - 0.012ms returns 0
T2CA8 000:689.019 JLINK_WriteReg(R11, 0x00000000)
T2CA8 000:689.030 - 0.011ms returns 0
T2CA8 000:689.043 JLINK_WriteReg(R12, 0x00000000)
T2CA8 000:689.055 - 0.012ms returns 0
T2CA8 000:689.067 JLINK_WriteReg(R13 (SP), 0x20001000)
T2CA8 000:689.081 - 0.013ms returns 0
T2CA8 000:689.094 JLINK_WriteReg(R14, 0x20000001)
T2CA8 000:689.105 - 0.011ms returns 0
T2CA8 000:689.117 JLINK_WriteReg(R15 (PC), 0x200000CE)
T2CA8 000:689.130 - 0.012ms returns 0
T2CA8 000:689.139 JLINK_WriteReg(XPSR, 0x01000000)
T2CA8 000:689.149 - 0.009ms returns 0
T2CA8 000:689.158 JLINK_WriteReg(MSP, 0x20001000)
T2CA8 000:689.166 - 0.008ms returns 0
T2CA8 000:689.176 JLINK_WriteReg(PSP, 0x20001000)
T2CA8 000:689.184 - 0.008ms returns 0
T2CA8 000:689.194 JLINK_WriteReg(CFBP, 0x00000000)
T2CA8 000:689.202 - 0.008ms returns 0
T2CA8 000:689.213 JLINK_SetBPEx(Addr = 0x20000000, Type = 0xFFFFFFF2)
T2CA8 000:689.224 - 0.011ms returns 0x00000007
T2CA8 000:689.234 JLINK_Go()
T2CA8 000:689.256   CPU_ReadMem(4 bytes @ 0xE0001000)
T2CA8 000:692.159 - 2.922ms
T2CA8 000:692.193 JLINK_IsHalted()
T2CA8 000:692.661 - 0.468ms returns FALSE
T2CA8 000:692.677 JLINK_HasError()
T2CA8 000:695.556 JLINK_IsHalted()
T2CA8 000:696.214 - 0.657ms returns FALSE
T2CA8 000:696.224 JLINK_HasError()
T2CA8 000:697.554 JLINK_IsHalted()
T2CA8 000:698.027 - 0.474ms returns FALSE
T2CA8 000:698.047 JLINK_HasError()
T2CA8 000:699.533 JLINK_IsHalted()
T2CA8 000:700.181 - 0.647ms returns FALSE
T2CA8 000:700.190 JLINK_HasError()
T2CA8 000:701.541 JLINK_IsHalted()
T2CA8 000:702.158 - 0.616ms returns FALSE
T2CA8 000:702.167 JLINK_HasError()
T2CA8 000:703.533 JLINK_IsHalted()
T2CA8 000:704.124 - 0.590ms returns FALSE
T2CA8 000:704.141 JLINK_HasError()
T2CA8 000:705.449 JLINK_IsHalted()
T2CA8 000:707.813   CPU_ReadMem(2 bytes @ 0x20000000)
T2CA8 000:708.457 - 3.002ms returns TRUE
T2CA8 000:708.473 JLINK_ReadReg(R15 (PC))
T2CA8 000:708.480 - 0.006ms returns 0x20000000
T2CA8 000:708.485 JLINK_ClrBPEx(BPHandle = 0x00000007)
T2CA8 000:708.488 - 0.003ms returns 0x00
T2CA8 000:708.539 JLINK_ReadReg(R0)
T2CA8 000:708.543 - 0.004ms returns 0x00000000
T2CA8 000:709.031 JLINK_WriteMem(0x2000011C, 0x200 Bytes, ...)
T2CA8 000:709.039   Data:  20 3A D0 40 00 21 10 BD 0B 46 D3 40 D0 40 20 24 ...
T2CA8 000:709.051   CPU_WriteMem(512 bytes @ 0x2000011C)
T2CA8 000:711.513 - 2.482ms returns 0x200
T2CA8 000:711.531 JLINK_HasError()
T2CA8 000:711.536 JLINK_WriteReg(R0, 0x00000600)
T2CA8 000:711.542 - 0.006ms returns 0
T2CA8 000:711.546 JLINK_WriteReg(R1, 0x00000200)
T2CA8 000:711.549 - 0.003ms returns 0
T2CA8 000:711.553 JLINK_WriteReg(R2, 0x2000011C)
T2CA8 000:711.556 - 0.003ms returns 0
T2CA8 000:711.560 JLINK_WriteReg(R3, 0x00000000)
T2CA8 000:711.563 - 0.003ms returns 0
T2CA8 000:711.566 JLINK_WriteReg(R4, 0x00000000)
T2CA8 000:711.571 - 0.004ms returns 0
T2CA8 000:711.575 JLINK_WriteReg(R5, 0x00000000)
T2CA8 000:711.578 - 0.003ms returns 0
T2CA8 000:711.582 JLINK_WriteReg(R6, 0x00000000)
T2CA8 000:711.586 - 0.003ms returns 0
T2CA8 000:711.589 JLINK_WriteReg(R7, 0x00000000)
T2CA8 000:711.593 - 0.003ms returns 0
T2CA8 000:711.597 JLINK_WriteReg(R8, 0x00000000)
T2CA8 000:711.600 - 0.003ms returns 0
T2CA8 000:711.604 JLINK_WriteReg(R9, 0x20000118)
T2CA8 000:711.607 - 0.003ms returns 0
T2CA8 000:711.611 JLINK_WriteReg(R10, 0x00000000)
T2CA8 000:711.615 - 0.003ms returns 0
T2CA8 000:711.619 JLINK_WriteReg(R11, 0x00000000)
T2CA8 000:711.622 - 0.003ms returns 0
T2CA8 000:711.626 JLINK_WriteReg(R12, 0x00000000)
T2CA8 000:711.629 - 0.003ms returns 0
T2CA8 000:711.633 JLINK_WriteReg(R13 (SP), 0x20001000)
T2CA8 000:711.637 - 0.004ms returns 0
T2CA8 000:711.641 JLINK_WriteReg(R14, 0x20000001)
T2CA8 000:711.645 - 0.003ms returns 0
T2CA8 000:711.648 JLINK_WriteReg(R15 (PC), 0x200000CE)
T2CA8 000:711.652 - 0.003ms returns 0
T2CA8 000:711.656 JLINK_WriteReg(XPSR, 0x01000000)
T2CA8 000:711.659 - 0.003ms returns 0
T2CA8 000:711.663 JLINK_WriteReg(MSP, 0x20001000)
T2CA8 000:711.667 - 0.003ms returns 0
T2CA8 000:711.670 JLINK_WriteReg(PSP, 0x20001000)
T2CA8 000:711.674 - 0.003ms returns 0
T2CA8 000:711.678 JLINK_WriteReg(CFBP, 0x00000000)
T2CA8 000:711.681 - 0.003ms returns 0
T2CA8 000:711.686 JLINK_SetBPEx(Addr = 0x20000000, Type = 0xFFFFFFF2)
T2CA8 000:711.690 - 0.004ms returns 0x00000008
T2CA8 000:711.694 JLINK_Go()
T2CA8 000:711.702   CPU_ReadMem(4 bytes @ 0xE0001000)
T2CA8 000:714.795 - 3.100ms
T2CA8 000:714.809 JLINK_IsHalted()
T2CA8 000:715.424 - 0.613ms returns FALSE
T2CA8 000:715.435 JLINK_HasError()
T2CA8 000:717.256 JLINK_IsHalted()
T2CA8 000:717.908 - 0.652ms returns FALSE
T2CA8 000:717.927 JLINK_HasError()
T2CA8 000:719.256 JLINK_IsHalted()
T2CA8 000:719.823 - 0.567ms returns FALSE
T2CA8 000:719.838 JLINK_HasError()
T2CA8 000:721.260 JLINK_IsHalted()
T2CA8 000:721.887 - 0.627ms returns FALSE
T2CA8 000:721.907 JLINK_HasError()
T2CA8 000:723.670 JLINK_IsHalted()
T2CA8 000:724.338 - 0.667ms returns FALSE
T2CA8 000:724.360 JLINK_HasError()
T2CA8 000:725.642 JLINK_IsHalted()
T2CA8 000:726.324 - 0.682ms returns FALSE
T2CA8 000:726.341 JLINK_HasError()
T2CA8 000:727.599 JLINK_IsHalted()
T2CA8 000:729.984   CPU_ReadMem(2 bytes @ 0x20000000)
T2CA8 000:730.609 - 3.008ms returns TRUE
T2CA8 000:730.630 JLINK_ReadReg(R15 (PC))
T2CA8 000:730.645 - 0.014ms returns 0x20000000
T2CA8 000:730.655 JLINK_ClrBPEx(BPHandle = 0x00000008)
T2CA8 000:730.663 - 0.008ms returns 0x00
T2CA8 000:730.672 JLINK_ReadReg(R0)
T2CA8 000:730.680 - 0.008ms returns 0x00000000
T2CA8 000:731.615 JLINK_WriteMem(0x2000011C, 0x200 Bytes, ...)
T2CA8 000:731.634   Data:  A0 1C FF F7 CC FC C5 B2 28 46 03 F0 3D FB 11 E0 ...
T2CA8 000:731.661   CPU_WriteMem(512 bytes @ 0x2000011C)
T2CA8 000:734.118 - 2.502ms returns 0x200
T2CA8 000:734.151 JLINK_HasError()
T2CA8 000:734.164 JLINK_WriteReg(R0, 0x00000800)
T2CA8 000:734.184 - 0.020ms returns 0
T2CA8 000:734.194 JLINK_WriteReg(R1, 0x00000200)
T2CA8 000:734.204 - 0.009ms returns 0
T2CA8 000:734.214 JLINK_WriteReg(R2, 0x2000011C)
T2CA8 000:734.223 - 0.009ms returns 0
T2CA8 000:734.233 JLINK_WriteReg(R3, 0x00000000)
T2CA8 000:734.254 - 0.021ms returns 0
T2CA8 000:734.264 JLINK_WriteReg(R4, 0x00000000)
T2CA8 000:734.273 - 0.009ms returns 0
T2CA8 000:734.283 JLINK_WriteReg(R5, 0x00000000)
T2CA8 000:734.292 - 0.008ms returns 0
T2CA8 000:734.302 JLINK_WriteReg(R6, 0x00000000)
T2CA8 000:734.310 - 0.008ms returns 0
T2CA8 000:734.320 JLINK_WriteReg(R7, 0x00000000)
T2CA8 000:734.329 - 0.008ms returns 0
T2CA8 000:734.339 JLINK_WriteReg(R8, 0x00000000)
T2CA8 000:734.348 - 0.009ms returns 0
T2CA8 000:734.358 JLINK_WriteReg(R9, 0x20000118)
T2CA8 000:734.367 - 0.009ms returns 0
T2CA8 000:734.377 JLINK_WriteReg(R10, 0x00000000)
T2CA8 000:734.386 - 0.009ms returns 0
T2CA8 000:734.396 JLINK_WriteReg(R11, 0x00000000)
T2CA8 000:734.405 - 0.009ms returns 0
T2CA8 000:734.415 JLINK_WriteReg(R12, 0x00000000)
T2CA8 000:734.424 - 0.009ms returns 0
T2CA8 000:734.434 JLINK_WriteReg(R13 (SP), 0x20001000)
T2CA8 000:734.444 - 0.010ms returns 0
T2CA8 000:734.454 JLINK_WriteReg(R14, 0x20000001)
T2CA8 000:734.463 - 0.009ms returns 0
T2CA8 000:734.473 JLINK_WriteReg(R15 (PC), 0x200000CE)
T2CA8 000:734.482 - 0.009ms returns 0
T2CA8 000:734.492 JLINK_WriteReg(XPSR, 0x01000000)
T2CA8 000:734.501 - 0.009ms returns 0
T2CA8 000:734.511 JLINK_WriteReg(MSP, 0x20001000)
T2CA8 000:734.520 - 0.009ms returns 0
T2CA8 000:734.530 JLINK_WriteReg(PSP, 0x20001000)
T2CA8 000:734.539 - 0.009ms returns 0
T2CA8 000:734.570 JLINK_WriteReg(CFBP, 0x00000000)
T2CA8 000:734.580 - 0.010ms returns 0
T2CA8 000:734.591 JLINK_SetBPEx(Addr = 0x20000000, Type = 0xFFFFFFF2)
T2CA8 000:734.601 - 0.011ms returns 0x00000009
T2CA8 000:734.612 JLINK_Go()
T2CA8 000:734.633   CPU_ReadMem(4 bytes @ 0xE0001000)
T2CA8 000:738.093 - 3.480ms
T2CA8 000:738.113 JLINK_IsHalted()
T2CA8 000:738.488 - 0.373ms returns FALSE
T2CA8 000:738.516 JLINK_HasError()
T2CA8 000:740.239 JLINK_IsHalted()
T2CA8 000:740.742 - 0.495ms returns FALSE
T2CA8 000:740.753 JLINK_HasError()
T2CA8 000:742.253 JLINK_IsHalted()
T2CA8 000:742.653 - 0.399ms returns FALSE
T2CA8 000:742.662 JLINK_HasError()
T2CA8 000:744.243 JLINK_IsHalted()
T2CA8 000:744.810 - 0.567ms returns FALSE
T2CA8 000:744.819 JLINK_HasError()
T2CA8 000:746.247 JLINK_IsHalted()
T2CA8 000:746.770 - 0.522ms returns FALSE
T2CA8 000:746.783 JLINK_HasError()
T2CA8 000:748.235 JLINK_IsHalted()
T2CA8 000:748.727 - 0.492ms returns FALSE
T2CA8 000:748.741 JLINK_HasError()
T2CA8 000:750.247 JLINK_IsHalted()
T2CA8 000:752.630   CPU_ReadMem(2 bytes @ 0x20000000)
T2CA8 000:753.139 - 2.891ms returns TRUE
T2CA8 000:753.150 JLINK_ReadReg(R15 (PC))
T2CA8 000:753.158 - 0.007ms returns 0x20000000
T2CA8 000:753.164 JLINK_ClrBPEx(BPHandle = 0x00000009)
T2CA8 000:753.169 - 0.004ms returns 0x00
T2CA8 000:753.175 JLINK_ReadReg(R0)
T2CA8 000:753.180 - 0.004ms returns 0x00000000
T2CA8 000:753.774 JLINK_WriteMem(0x2000011C, 0x200 Bytes, ...)
T2CA8 000:753.782   Data:  20 20 20 20 20 20 20 20 00 00 00 00 44 61 74 61 ...
T2CA8 000:753.794   CPU_WriteMem(512 bytes @ 0x2000011C)
T2CA8 000:756.047 - 2.273ms returns 0x200
T2CA8 000:756.070 JLINK_HasError()
T2CA8 000:756.093 JLINK_WriteReg(R0, 0x00000A00)
T2CA8 000:756.104 - 0.027ms returns 0
T2CA8 000:756.108 JLINK_WriteReg(R1, 0x00000200)
T2CA8 000:756.112 - 0.003ms returns 0
T2CA8 000:756.116 JLINK_WriteReg(R2, 0x2000011C)
T2CA8 000:756.120 - 0.003ms returns 0
T2CA8 000:756.123 JLINK_WriteReg(R3, 0x00000000)
T2CA8 000:756.127 - 0.003ms returns 0
T2CA8 000:756.131 JLINK_WriteReg(R4, 0x00000000)
T2CA8 000:756.134 - 0.003ms returns 0
T2CA8 000:756.138 JLINK_WriteReg(R5, 0x00000000)
T2CA8 000:756.142 - 0.003ms returns 0
T2CA8 000:756.146 JLINK_WriteReg(R6, 0x00000000)
T2CA8 000:756.149 - 0.003ms returns 0
T2CA8 000:756.153 JLINK_WriteReg(R7, 0x00000000)
T2CA8 000:756.157 - 0.003ms returns 0
T2CA8 000:756.161 JLINK_WriteReg(R8, 0x00000000)
T2CA8 000:756.164 - 0.003ms returns 0
T2CA8 000:756.168 JLINK_WriteReg(R9, 0x20000118)
T2CA8 000:756.172 - 0.003ms returns 0
T2CA8 000:756.176 JLINK_WriteReg(R10, 0x00000000)
T2CA8 000:756.179 - 0.003ms returns 0
T2CA8 000:756.196 JLINK_WriteReg(R11, 0x00000000)
T2CA8 000:756.203 - 0.007ms returns 0
T2CA8 000:756.206 JLINK_WriteReg(R12, 0x00000000)
T2CA8 000:756.209 - 0.003ms returns 0
T2CA8 000:756.213 JLINK_WriteReg(R13 (SP), 0x20001000)
T2CA8 000:756.217 - 0.004ms returns 0
T2CA8 000:756.221 JLINK_WriteReg(R14, 0x20000001)
T2CA8 000:756.224 - 0.003ms returns 0
T2CA8 000:756.227 JLINK_WriteReg(R15 (PC), 0x200000CE)
T2CA8 000:756.231 - 0.003ms returns 0
T2CA8 000:756.234 JLINK_WriteReg(XPSR, 0x01000000)
T2CA8 000:756.238 - 0.003ms returns 0
T2CA8 000:756.241 JLINK_WriteReg(MSP, 0x20001000)
T2CA8 000:756.244 - 0.003ms returns 0
T2CA8 000:756.248 JLINK_WriteReg(PSP, 0x20001000)
T2CA8 000:756.251 - 0.003ms returns 0
T2CA8 000:756.255 JLINK_WriteReg(CFBP, 0x00000000)
T2CA8 000:756.258 - 0.003ms returns 0
T2CA8 000:756.262 JLINK_SetBPEx(Addr = 0x20000000, Type = 0xFFFFFFF2)
T2CA8 000:756.266 - 0.004ms returns 0x0000000A
T2CA8 000:756.270 JLINK_Go()
T2CA8 000:756.282   CPU_ReadMem(4 bytes @ 0xE0001000)
T2CA8 000:758.976 - 2.704ms
T2CA8 000:758.994 JLINK_IsHalted()
T2CA8 000:759.430 - 0.435ms returns FALSE
T2CA8 000:759.448 JLINK_HasError()
T2CA8 000:762.266 JLINK_IsHalted()
T2CA8 000:762.852 - 0.580ms returns FALSE
T2CA8 000:762.868 JLINK_HasError()
T2CA8 000:764.272 JLINK_IsHalted()
T2CA8 000:764.765 - 0.493ms returns FALSE
T2CA8 000:764.781 JLINK_HasError()
T2CA8 000:766.245 JLINK_IsHalted()
T2CA8 000:766.756 - 0.510ms returns FALSE
T2CA8 000:766.767 JLINK_HasError()
T2CA8 000:768.245 JLINK_IsHalted()
T2CA8 000:768.905 - 0.659ms returns FALSE
T2CA8 000:768.920 JLINK_HasError()
T2CA8 000:770.605 JLINK_IsHalted()
T2CA8 000:772.833   CPU_ReadMem(2 bytes @ 0x20000000)
T2CA8 000:773.317 - 2.711ms returns TRUE
T2CA8 000:773.329 JLINK_ReadReg(R15 (PC))
T2CA8 000:773.337 - 0.007ms returns 0x20000000
T2CA8 000:773.341 JLINK_ClrBPEx(BPHandle = 0x0000000A)
T2CA8 000:773.345 - 0.003ms returns 0x00
T2CA8 000:773.349 JLINK_ReadReg(R0)
T2CA8 000:773.352 - 0.003ms returns 0x00000000
T2CA8 000:773.762 JLINK_WriteMem(0x2000011C, 0x200 Bytes, ...)
T2CA8 000:773.768   Data:  00 20 0E 49 08 70 0F 48 00 78 80 21 08 40 00 28 ...
T2CA8 000:773.779   CPU_WriteMem(512 bytes @ 0x2000011C)
T2CA8 000:776.056 - 2.293ms returns 0x200
T2CA8 000:776.072 JLINK_HasError()
T2CA8 000:776.078 JLINK_WriteReg(R0, 0x00000C00)
T2CA8 000:776.086 - 0.008ms returns 0
T2CA8 000:776.091 JLINK_WriteReg(R1, 0x00000200)
T2CA8 000:776.095 - 0.003ms returns 0
T2CA8 000:776.099 JLINK_WriteReg(R2, 0x2000011C)
T2CA8 000:776.103 - 0.003ms returns 0
T2CA8 000:776.106 JLINK_WriteReg(R3, 0x00000000)
T2CA8 000:776.110 - 0.003ms returns 0
T2CA8 000:776.114 JLINK_WriteReg(R4, 0x00000000)
T2CA8 000:776.118 - 0.003ms returns 0
T2CA8 000:776.122 JLINK_WriteReg(R5, 0x00000000)
T2CA8 000:776.125 - 0.003ms returns 0
T2CA8 000:776.129 JLINK_WriteReg(R6, 0x00000000)
T2CA8 000:776.132 - 0.003ms returns 0
T2CA8 000:776.136 JLINK_WriteReg(R7, 0x00000000)
T2CA8 000:776.140 - 0.003ms returns 0
T2CA8 000:776.144 JLINK_WriteReg(R8, 0x00000000)
T2CA8 000:776.147 - 0.003ms returns 0
T2CA8 000:776.151 JLINK_WriteReg(R9, 0x20000118)
T2CA8 000:776.155 - 0.003ms returns 0
T2CA8 000:776.159 JLINK_WriteReg(R10, 0x00000000)
T2CA8 000:776.163 - 0.003ms returns 0
T2CA8 000:776.167 JLINK_WriteReg(R11, 0x00000000)
T2CA8 000:776.171 - 0.003ms returns 0
T2CA8 000:776.255 JLINK_WriteReg(R12, 0x00000000)
T2CA8 000:776.273 - 0.018ms returns 0
T2CA8 000:776.278 JLINK_WriteReg(R13 (SP), 0x20001000)
T2CA8 000:776.282 - 0.004ms returns 0
T2CA8 000:776.286 JLINK_WriteReg(R14, 0x20000001)
T2CA8 000:776.289 - 0.003ms returns 0
T2CA8 000:776.293 JLINK_WriteReg(R15 (PC), 0x200000CE)
T2CA8 000:776.296 - 0.003ms returns 0
T2CA8 000:776.300 JLINK_WriteReg(XPSR, 0x01000000)
T2CA8 000:776.303 - 0.003ms returns 0
T2CA8 000:776.306 JLINK_WriteReg(MSP, 0x20001000)
T2CA8 000:776.310 - 0.003ms returns 0
T2CA8 000:776.313 JLINK_WriteReg(PSP, 0x20001000)
T2CA8 000:776.316 - 0.003ms returns 0
T2CA8 000:776.320 JLINK_WriteReg(CFBP, 0x00000000)
T2CA8 000:776.323 - 0.003ms returns 0
T2CA8 000:776.336 JLINK_SetBPEx(Addr = 0x20000000, Type = 0xFFFFFFF2)
T2CA8 000:776.341 - 0.005ms returns 0x0000000B
T2CA8 000:776.345 JLINK_Go()
T2CA8 000:776.355   CPU_ReadMem(4 bytes @ 0xE0001000)
T2CA8 000:779.304 - 2.958ms
T2CA8 000:779.317 JLINK_IsHalted()
T2CA8 000:779.837 - 0.519ms returns FALSE
T2CA8 000:779.847 JLINK_HasError()
T2CA8 000:781.577 JLINK_IsHalted()
T2CA8 000:782.066 - 0.488ms returns FALSE
T2CA8 000:782.080 JLINK_HasError()
T2CA8 000:783.579 JLINK_IsHalted()
T2CA8 000:783.992 - 0.412ms returns FALSE
T2CA8 000:784.005 JLINK_HasError()
T2CA8 000:785.490 JLINK_IsHalted()
T2CA8 000:786.101 - 0.610ms returns FALSE
T2CA8 000:786.114 JLINK_HasError()
T2CA8 000:787.632 JLINK_IsHalted()
T2CA8 000:788.054 - 0.420ms returns FALSE
T2CA8 000:788.071 JLINK_HasError()
T2CA8 000:789.492 JLINK_IsHalted()
T2CA8 000:790.091 - 0.597ms returns FALSE
T2CA8 000:790.102 JLINK_HasError()
T2CA8 000:791.508 JLINK_IsHalted()
T2CA8 000:794.092   CPU_ReadMem(2 bytes @ 0x20000000)
T2CA8 000:794.706 - 3.197ms returns TRUE
T2CA8 000:794.719 JLINK_ReadReg(R15 (PC))
T2CA8 000:794.727 - 0.008ms returns 0x20000000
T2CA8 000:794.733 JLINK_ClrBPEx(BPHandle = 0x0000000B)
T2CA8 000:794.739 - 0.005ms returns 0x00
T2CA8 000:794.745 JLINK_ReadReg(R0)
T2CA8 000:794.751 - 0.005ms returns 0x00000000
T2CA8 000:795.268 JLINK_WriteMem(0x2000011C, 0x200 Bytes, ...)
T2CA8 000:795.278   Data:  83 00 CA 54 70 47 00 00 00 61 00 40 00 22 02 49 ...
T2CA8 000:795.294   CPU_WriteMem(512 bytes @ 0x2000011C)
T2CA8 000:797.621 - 2.351ms returns 0x200
T2CA8 000:797.643 JLINK_HasError()
T2CA8 000:797.652 JLINK_WriteReg(R0, 0x00000E00)
T2CA8 000:797.665 - 0.012ms returns 0
T2CA8 000:797.673 JLINK_WriteReg(R1, 0x00000200)
T2CA8 000:797.680 - 0.007ms returns 0
T2CA8 000:797.688 JLINK_WriteReg(R2, 0x2000011C)
T2CA8 000:797.695 - 0.006ms returns 0
T2CA8 000:797.702 JLINK_WriteReg(R3, 0x00000000)
T2CA8 000:797.709 - 0.006ms returns 0
T2CA8 000:797.716 JLINK_WriteReg(R4, 0x00000000)
T2CA8 000:797.723 - 0.006ms returns 0
T2CA8 000:797.730 JLINK_WriteReg(R5, 0x00000000)
T2CA8 000:797.737 - 0.006ms returns 0
T2CA8 000:797.745 JLINK_WriteReg(R6, 0x00000000)
T2CA8 000:797.751 - 0.006ms returns 0
T2CA8 000:797.759 JLINK_WriteReg(R7, 0x00000000)
T2CA8 000:797.766 - 0.006ms returns 0
T2CA8 000:797.773 JLINK_WriteReg(R8, 0x00000000)
T2CA8 000:797.780 - 0.006ms returns 0
T2CA8 000:797.787 JLINK_WriteReg(R9, 0x20000118)
T2CA8 000:797.794 - 0.006ms returns 0
T2CA8 000:797.801 JLINK_WriteReg(R10, 0x00000000)
T2CA8 000:797.808 - 0.006ms returns 0
T2CA8 000:797.815 JLINK_WriteReg(R11, 0x00000000)
T2CA8 000:797.822 - 0.006ms returns 0
T2CA8 000:797.830 JLINK_WriteReg(R12, 0x00000000)
T2CA8 000:797.836 - 0.006ms returns 0
T2CA8 000:797.844 JLINK_WriteReg(R13 (SP), 0x20001000)
T2CA8 000:797.852 - 0.008ms returns 0
T2CA8 000:797.859 JLINK_WriteReg(R14, 0x20000001)
T2CA8 000:797.866 - 0.006ms returns 0
T2CA8 000:797.874 JLINK_WriteReg(R15 (PC), 0x200000CE)
T2CA8 000:797.880 - 0.006ms returns 0
T2CA8 000:797.888 JLINK_WriteReg(XPSR, 0x01000000)
T2CA8 000:797.895 - 0.006ms returns 0
T2CA8 000:797.902 JLINK_WriteReg(MSP, 0x20001000)
T2CA8 000:797.909 - 0.006ms returns 0
T2CA8 000:797.916 JLINK_WriteReg(PSP, 0x20001000)
T2CA8 000:797.923 - 0.006ms returns 0
T2CA8 000:797.930 JLINK_WriteReg(CFBP, 0x00000000)
T2CA8 000:797.937 - 0.006ms returns 0
T2CA8 000:797.945 JLINK_SetBPEx(Addr = 0x20000000, Type = 0xFFFFFFF2)
T2CA8 000:797.954 - 0.009ms returns 0x0000000C
T2CA8 000:797.961 JLINK_Go()
T2CA8 000:797.977   CPU_ReadMem(4 bytes @ 0xE0001000)
T2CA8 000:801.017 - 3.054ms
T2CA8 000:801.042 JLINK_IsHalted()
T2CA8 000:801.548 - 0.505ms returns FALSE
T2CA8 000:801.571 JLINK_HasError()
T2CA8 000:804.395 JLINK_IsHalted()
T2CA8 000:805.045 - 0.650ms returns FALSE
T2CA8 000:805.056 JLINK_HasError()
T2CA8 000:806.399 JLINK_IsHalted()
T2CA8 000:807.004 - 0.603ms returns FALSE
T2CA8 000:807.015 JLINK_HasError()
T2CA8 000:808.409 JLINK_IsHalted()
T2CA8 000:808.937 - 0.527ms returns FALSE
T2CA8 000:808.963 JLINK_HasError()
T2CA8 000:810.390 JLINK_IsHalted()
T2CA8 000:811.019 - 0.623ms returns FALSE
T2CA8 000:811.048 JLINK_HasError()
T2CA8 000:812.377 JLINK_IsHalted()
T2CA8 000:812.985 - 0.607ms returns FALSE
T2CA8 000:813.005 JLINK_HasError()
T2CA8 000:814.372 JLINK_IsHalted()
T2CA8 000:816.896   CPU_ReadMem(2 bytes @ 0x20000000)
T2CA8 000:817.480 - 3.107ms returns TRUE
T2CA8 000:817.491 JLINK_ReadReg(R15 (PC))
T2CA8 000:817.498 - 0.006ms returns 0x20000000
T2CA8 000:817.502 JLINK_ClrBPEx(BPHandle = 0x0000000C)
T2CA8 000:817.506 - 0.003ms returns 0x00
T2CA8 000:817.510 JLINK_ReadReg(R0)
T2CA8 000:817.513 - 0.003ms returns 0x00000000
T2CA8 000:817.886 JLINK_WriteMem(0x2000011C, 0x200 Bytes, ...)
T2CA8 000:817.893   Data:  0D E0 00 2C 02 DD 60 1E C4 B2 00 E0 02 24 20 E0 ...
T2CA8 000:817.903   CPU_WriteMem(512 bytes @ 0x2000011C)
T2CA8 000:820.275 - 2.387ms returns 0x200
T2CA8 000:820.287 JLINK_HasError()
T2CA8 000:820.292 JLINK_WriteReg(R0, 0x00001000)
T2CA8 000:820.298 - 0.006ms returns 0
T2CA8 000:820.303 JLINK_WriteReg(R1, 0x00000200)
T2CA8 000:820.309 - 0.005ms returns 0
T2CA8 000:820.319 JLINK_WriteReg(R2, 0x2000011C)
T2CA8 000:820.323 - 0.003ms returns 0
T2CA8 000:820.327 JLINK_WriteReg(R3, 0x00000000)
T2CA8 000:820.330 - 0.003ms returns 0
T2CA8 000:820.334 JLINK_WriteReg(R4, 0x00000000)
T2CA8 000:820.338 - 0.003ms returns 0
T2CA8 000:820.341 JLINK_WriteReg(R5, 0x00000000)
T2CA8 000:820.345 - 0.003ms returns 0
T2CA8 000:820.349 JLINK_WriteReg(R6, 0x00000000)
T2CA8 000:820.352 - 0.003ms returns 0
T2CA8 000:820.356 JLINK_WriteReg(R7, 0x00000000)
T2CA8 000:820.360 - 0.003ms returns 0
T2CA8 000:820.364 JLINK_WriteReg(R8, 0x00000000)
T2CA8 000:820.367 - 0.003ms returns 0
T2CA8 000:820.372 JLINK_WriteReg(R9, 0x20000118)
T2CA8 000:820.377 - 0.005ms returns 0
T2CA8 000:820.381 JLINK_WriteReg(R10, 0x00000000)
